S11 (dB),VSWR,Gain (dBi),Eff (%),BW (MHz),Z_Real (Ohms),Z_Imag (Ohms),Status,Fault_Type
0.054466213629106745,-0.6313561170932478,0.42220499933782746,0.36145106874372596,0.9048428887076937,-0.03814011523159479,0.519633386109163,1,1
0.1152296401424273,-0.32951181509512256,0.39755868836626623,0.10962728652561676,0.6987471141295929,-0.30489984574582035,-0.6893721923655272,1,4
1.0715302336020676,0.8360715664668685,-1.2701750207093743,-1.1408080458677536,-1.2385531669045546,-1.4751348103411006,2.4616110451088713,1,2
0.9615773665779638,2.6935749633784085,-2.4655211028300923,-1.1712005713078704,-1.1148957021576942,-1.195322615948503,1.660918718013607,1,2
0.8979204435640089,0.6549649852679936,-0.9210189486122576,-0.915034999741173,-1.320991476735795,-1.1949147264523041,2.2871318215925895,1,2
0.6447394997585065,0.8174965324977531,-0.6416940909345641,-0.9193767890897612,-0.9087999275795934,2.400223293046755,0.07387482192030684,1,0
0.03131824162403222,-0.6777937020160363,0.7508224789586433,0.5655151681273665,0.32777471988901147,0.15479161647058964,0.474220985467939,1,1
0.5261061432324997,-0.4688245698634879,0.2784348520037204,0.2963242285149046,-0.5378275333390119,-0.6426323485986931,-0.9965034282811733,1,5
0.04723247237752086,-0.5152621547862765,0.29486572598476124,0.34408391134937366,-0.08441682926719017,0.360367922554947,-0.4635052523341765,1,4
1.0397017720950903,1.7090981630152922,-1.79596298810268,-0.9845036293185825,-1.8568404906388571,-1.562831052023912,2.7269150699076,1,2
0.8429440100519568,-0.09268013198890132,-0.2925380188374472,-0.6371604814315351,-1.1561148570733144,1.0162542324431345,-0.5312254989044227,1,0
-0.23054319168337317,-0.6731499435237573,0.32361975545158256,-0.3375770163789569,-0.001978519435949843,-0.06506082198073697,-0.6650725744785564,1,4
0.445088241214739,-0.6034935661395747,0.4016664068615263,0.6219584296590118,-0.33173175876091116,-0.8147617159947226,-1.0530697518869083,1,5
-0.3303688209552569,-0.50133087930944,0.22503451156533782,-0.5633500625055374,0.12167894531091064,0.12746302022524844,-0.8969148303837524,1,4
-1.2837759179142632,-0.9332004190913729,1.2971490388282494,1.9071280768410868,1.234596128032655,-0.07688961737051146,-0.21732223833175193,0,3
-0.06706063939753437,-0.7056562529697094,-0.1323369975222994,-0.10312039155519967,0.7811854239608332,-0.2991893927990326,-0.8634530614902188,1,4
-0.20739521967829863,-0.42703074343297837,-0.2144913674275034,-0.6415022707801233,0.08045979039529048,-0.20700636665803118,-1.0431108920971661,1,4
0.14127110864813608,-0.21806161128043025,-0.004997724169233239,0.21817202024031906,-0.4553892235077716,-0.41951679417777366,-1.188510245027401,1,5
1.064296492350482,1.19364097037234,-2.0383183793230315,-1.4317079322231558,-1.4446489414826555,-1.4013068115290597,1.8238456641737875,1,2
-1.2765421766626772,-0.9332004190913729,1.5066426820865197,1.394796933707692,1.4406919026107559,0.20414624551068342,-0.2113469224579067,0,3
0.17743981490606497,-0.7706688718616133,0.3852355328804855,0.43526148766972367,0.24533641005777113,0.37586772341051367,0.2897829021619154,1,1
-0.3621972824622344,-0.594206049155017,0.8987003447880103,0.7522121101166546,1.0697195083701743,0.11889734080506713,0.116498741820403,1,1
-0.15820577916751535,-0.5756310151859017,0.21681907457481742,0.509071906595721,1.0697195083701743,-0.25513732720952753,0.20294164479536436,1,1
0.06025320663037524,-0.5616997397090651,0.7015298570155208,0.28329886046914043,0.987281198538934,-0.19884857673404893,0.007747992916419335,1,1
0.057359710129741,-0.5988498076472958,0.17163417112695528,0.17475412675443813,0.20411725514215096,-0.008364182009059027,-0.7144685190356771,1,4
1.045488765096359,0.44135209462316655,-0.8922649191454362,-1.7486585546700868,-1.815621335723237,-1.352360071985165,2.45045712214436,1,2
-0.35062329645969714,-0.4688245698634879,-0.1323369975222994,0.10094370782844046,0.1628981002265308,-0.13236258885359198,-0.5499481553091379,1,4
-0.2710521426922535,-0.6824374605083151,0.13055698617435324,0.16172875870867368,-0.1668551390984305,0.17233086480715187,-0.7068997855954732,1,4
-0.35062329645969714,-0.6638624265391997,0.2332499485558582,0.5741987468245424,0.24533641005777113,0.2963292716516848,0.17784531812521426,1,1
0.26569145817541157,-0.4223869849406996,0.5248979617193325,0.3354003326521974,0.1628981002265308,0.4219592364810145,-0.8248126855060196,1,4
-0.6283989605205912,-0.7242312869388248,0.7138530125013015,0.5872241148703066,0.8636237337920736,-0.01978508790263448,0.22803797146551447,1,1
0.34815610844348954,-0.02302375460471841,0.41809728084256714,-0.39402027791060196,-0.2492934489296708,-0.6108169678951616,-0.668259409611274,1,5
0.054466213629106745,-0.5291934302631132,0.44274359181412837,-0.22034870396707829,0.32777471988901147,0.15601528495918707,-0.9837560877503034,1,4
-0.30143385594891386,-0.7846001473384497,0.2086036375842971,0.38316001548666645,0.4514321846358719,0.26288233296335684,0.3499344152919576,1,1
-1.532616616968814,-1.0214318304446712,1.5600430225249025,1.7942415537777965,1.770445141935717,0.0536350214132076,-0.3945899425891612,0,3
0.8993671918143261,1.4072538610171672,-1.8206092990742408,-1.1408080458677536,-1.6095255611451362,-1.3988594745518648,2.246101319258852,1,2
0.9572371218270124,2.7307250313166396,-1.758993521645338,-1.5880123487723272,-1.7331830258919967,-1.4743190313487022,1.0207632107289848,1,2
1.0816574713542877,2.280280457565591,-1.9931334758751695,-1.6661645570469128,-1.2797723218201749,-0.9412074598164503,2.6647717848196093,1,2
-0.5864432612613935,-0.5291934302631132,0.7097452940060412,0.5568315894301901,0.7811854239608332,-0.19721701874925218,0.19099101304767382,1,1
-1.28522266616458,-0.9332004190913729,1.0712245215889389,1.5467595609082752,1.3170344378638954,-0.10340243462345432,-0.44159576079674384,0,3
0.24688373092128857,-0.6359998755855266,0.5700828651671945,-0.13351291699531642,-0.1668551390984305,0.0014251658997199747,-0.7248257332170089,1,4
0.8357102688003712,2.2013365631968504,-2.2560274595718224,-1.4099989854802153,-1.8568404906388571,-0.9611940451302073,2.7938386076946666,1,2
0.009617017869274823,-0.5524122227245073,0.2702194150132,-0.48085606488236377,0.6575279592139728,0.20251468752588697,-0.8993049567332904,1,4
0.8111155485449796,0.46921464557683945,-0.3952309812189521,-1.0366051015016395,-0.9087999275795934,1.0497011711314628,-0.22608603494672497,1,0
-0.3535167929603314,-0.7335188039233825,0.7097452940060412,0.3657928580923141,0.4926513395514921,0.3252894258818225,0.10853165398860935,1,1
1.2017375761306117,2.5589059671023215,-1.3194676426524967,-1.761683922715851,-1.815621335723237,-1.3943726900936744,1.3175372324632995,1,2
1.2089713173821977,0.7710589475749648,-2.440874791858531,-1.674848135744089,-1.4034297865670353,-0.8894054937991618,2.2106477784073704,1,2
0.8458375065525913,1.866985951752773,-1.943840853932047,-1.3275049878570417,-1.320991476735795,-0.8290378483616918,1.8676646472486527,1,2
0.41325977970776145,-0.5570559812167862,-0.0008900056739730363,-0.4330963820478947,-0.04319767435157,-0.548001985480497,-0.834373190904172,1,5
0.8429440100519568,1.2586535892642439,-0.6786635573919059,-0.5459829051111852,-1.1973340119889344,2.86684887669855,-0.3750705774012667,1,0
0.0935284163876699,-0.4920433623248823,0.3852355328804855,-0.03799355132637829,0.2865555649733913,-0.9126551950825118,-0.6953475082393724,1,5
0.18178005965701663,-0.07874885651206466,0.46328218429042944,0.5264390639900737,-0.33173175876091116,-0.8114986000251295,-0.8495106577845799,1,5
0.17599306665574785,-0.5709872566936227,0.5290056802145925,0.3223749646064332,0.2865555649733913,0.15601528495918707,0.4415559253575849,1,1
-0.25658466018908194,-0.5524122227245073,0.4673899027856896,-0.5199321690196566,0.6987471141295929,-0.19232234479486285,-0.5264452462053464,1,4
0.038551982875618104,-0.4316745019252573,0.5947291761387558,0.4396032770183118,-0.08441682926719017,-0.4908974560126199,-0.9873412772746105,1,5
0.21794876591494552,-0.5384809472476708,0.2044959190890369,0.4048689622296069,0.12167894531091064,-0.4309377000713491,-0.7021195328963971,1,5
-2.5583611264436774,-1.0075005549678346,1.4573500601433973,1.9983056531614365,0.987281198538934,0.11033166138488554,-0.19899793631862647,0,3
1.1351871566160225,2.5635497255946005,-2.0424260978182915,-1.4447333002689202,-1.7331830258919967,-1.2658874987909512,1.1115880120114328,1,2
0.9311956533213036,0.9103717023433302,-2.0588569717993326,-1.5619616126807987,-1.4858680963982756,-1.593014874742647,1.9071017320160315,1,2
0.71418341577373,0.06056389825630074,-1.1551589028420888,-1.1234408884734015,-1.4034297865670353,1.3303291445164585,-0.4411974064051542,1,0
0.5998903039986746,0.05592013976402199,0.5536519911861537,0.5828823255217187,-0.2492934489296708,-0.7837621142835893,-0.8873543249856,1,5
0.1557385911513076,-0.11125516595801674,0.19628048209851648,-0.15956365308684506,0.24533641005777113,-0.89022127279156,-0.6905672555402962,1,5
1.1178261776122167,2.8328877181467735,-1.717916336692736,-0.9020096316954087,-1.8568404906388571,-1.4261880707972059,1.6501631494406852,1,2
-1.2186722466499909,-0.9935692794909978,1.2519641353803874,1.5901774543941563,1.0697195083701743,0.12093678828606262,-0.41291424460228665,0,3
0.8689854785576658,1.2725848647410807,-0.06250578310287606,-0.96713647192423,-0.826361617748353,1.502050622416289,-0.608904605264411,1,0
0.86175173730608,3.120800744668063,-1.8740096395126238,-1.6401138209553845,-1.568306406229516,-1.0370614914232439,2.70181874323745,1,2
1.0888912126058736,0.520295988991907,-1.6768391517401342,-1.0713394162903442,-1.6919638709763765,-1.3625573093901429,2.3827368755741136,1,2
0.08050768213481552,-0.6452873925700843,0.33183519244210297,0.9128583160144135,0.24533641005777113,0.40686732512164686,0.26349151231699625,1,1
0.10510240239020717,-0.49668712081716104,0.7672533529396841,0.5872241148703066,0.7811854239608332,0.09442397103311977,0.00934141048277807,1,1
-2.39921881890879,-1.0075005549678346,1.5518275855343817,1.412164091102044,1.0697195083701743,-0.1205337934638175,-0.39817513211346833,0,3
1.0888912126058736,1.6347980271388305,-2.366935858943848,-1.3057960411141012,-1.2797723218201749,-1.1129289377162805,1.6852183359005777,1,2
0.6794614577661183,0.06056389825630074,-0.23092224140854417,-0.9801618399699943,-1.4446489414826555,1.5885231956105024,0.07347646752871716,1,0
0.5362333809847198,1.0914782835422052,-0.08715209407443723,-0.8629335275581159,-0.290512603845291,2.8150469106812617,-0.33284501189276017,1,0
1.028127786092553,1.0496844571116957,-2.190303963647659,-1.0930483630332848,-1.073676547242074,-1.182270152070131,1.3482105206157051,1,2
0.46968296147013067,0.06056389825630074,0.43452815482360796,0.29198243916631644,0.32777471988901147,-0.7751964348634077,-0.7686447162918743,1,5
-0.16543952041910098,-0.6359998755855266,0.41398956234730705,-0.4374381713964829,0.4514321846358719,0.41665667303042586,-0.5272419549885259,1,4
-0.04391266739245985,0.00019503785667575205,0.16341873413643487,0.6132748509618354,-0.1668551390984305,-0.4268588051093578,-0.8435353419107346,1,5
0.1282503743952817,-0.3713056415256321,0.5043593692430313,-0.29415912289307594,0.4514321846358719,-0.849840212667847,-0.678218269401016,1,5
0.9803850938320869,2.5914122765482737,-1.0647890959463644,-1.3101378304626894,-1.6095255611451362,-1.0558244082484036,1.2541988842005398,1,2
0.8646452338067143,0.21380792850150282,-1.17980521381365,-0.6849201642660042,-0.5790466882546321,2.1787392966106314,-0.3949882969807509,1,0
-0.2580314084393991,-0.7335188039233825,0.8494077228448882,1.01271947103194,0.987281198538934,0.13358136266823548,0.2706618913656106,1,1
-2.857838014259329,-0.8914065926608633,1.51485811907704,1.776874396383444,1.6880068321044768,0.025898535671667333,-0.23644324912805675,0,3
-0.9177486105840225,-0.9471316945682096,1.2642872908661682,1.9027862874924988,1.6880068321044768,-0.0805606228363034,-0.12131882995863817,0,3
0.760479359783879,0.24167047945517592,-0.09125981256969744,-0.44177996074507103,-0.5790466882546321,1.1365816338218757,-0.5722560012381601,1,0
1.0686367371014334,0.8964404268664935,-0.5636474395246203,-0.962794682575642,-0.7851424628327329,1.98458389641985,0.09259747832502199,1,0
-1.7814573160233647,-0.9099816266299787,1.3423339422761118,1.6813550307145058,1.6055685222732365,0.08504251262053981,-0.2822540041608704,0,3
0.3467093601931723,-0.5384809472476708,0.30308116297528165,0.19212128414879046,0.32777471988901147,-0.7601045235040403,-0.9028901462575977,1,5
0.7706065975360992,1.2168597628337343,-0.9744192890506401,-0.7717559512377661,-0.9500190824952136,1.1108845955613311,-0.15995920594283747,1,0
1.0122135553390643,0.31597061533163756,-0.15698330849386063,-1.1581752032621062,-0.9912382374108337,1.0150305639545372,-0.649138398814969,1,0
1.0816574713542877,0.6921150532062245,-0.32129204830426855,-0.7196544790547088,-0.33173175876091116,2.1346872310211262,-0.329259822368453,1,0
-0.4692566529857038,-0.7985314228152863,0.30308116297528165,0.7999717929511233,1.193376973117035,-0.5251601736933463,0.3738356787873387,1,1
-0.8613254288216533,-1.0075005549678346,1.3176876313045507,1.3861133550105158,1.0285003534545543,0.011214513808498977,-0.34758412438157854,0,3
0.9919590798346242,3.083650676729832,-1.6768391517401342,-0.9324021571355253,-1.7744021808076167,-1.0819293360051474,1.9090935039739798,1,2
0.20926827641304252,-0.6638624265391997,0.2086036375842971,-0.4070456459563661,-0.08441682926719017,-0.15316495315974712,-0.9538795083810772,1,4
-0.6139314780174194,-0.7985314228152863,0.915131218769051,0.4135525409267832,0.6575279592139728,0.4753927604830993,0.4965288313969612,1,1
1.1684623663733171,1.1843534533877822,-1.2044515247852112,-1.340530355902806,-1.1148957021576942,-1.4237407338200112,1.7433780770726715,1,2
1.0570627510988961,1.128628351480436,-2.321750955495985,-1.4403915109203322,-1.2385531669045546,-1.0635743086761869,2.0652484254771357,1,2
-2.7203969304792,-0.9099816266299787,1.280718164847209,1.5988610330913324,1.6467876771888565,0.023043309198273472,-0.06953275905197928,0,3
-0.4345346949780922,-0.5477684642322286,0.4386358733188682,0.5481480107330141,0.3689938748046316,-0.4019775458412114,0.43159706556784283,1,1
1.0440420168460418,1.662660578092504,-1.0483582219653236,-1.7182660292299698,-1.7744021808076167,-1.3858070106734928,2.7376706384805214,1,2
1.084550967854922,0.8360715664668685,-1.2619595837188542,-0.41138743530495425,-0.8675807726639733,1.9907022388628364,-0.40893070068638976,1,0
0.16007883590225921,-0.041598788573833825,0.6275909241008374,-0.029309972629202295,-0.2492934489296708,-0.8612611185614225,-0.8845658442444722,1,5
-0.22186270218147014,-0.5570559812167862,0.7056375755107811,0.28329886046914043,0.8636237337920736,-0.2698213490726959,0.12008393134471015,1,1
-0.0815281219007059,-0.6824374605083151,0.5988368946340159,0.3310585433036095,0.8636237337920736,0.37586772341051367,0.22405442754961757,1,1
0.8328167722997368,2.6657124124247353,-1.0894354069179257,-1.6357720316067963,-1.6507447160607562,-1.2691506147605442,2.7077940591112952,1,2
-2.397772070658473,-1.0028567964755557,1.3628725347524127,1.2905939893415777,1.729225987020097,0.14908116352380194,-0.06754098709403088,0,3
-2.253097245626758,-0.9796380040141616,1.3628725347524127,1.3644044082675753,1.523130212441996,0.15479161647058964,-0.09263731376418094,0,3
-0.2869663734457421,-0.6452873925700843,0.6686681090534394,0.552489800081602,0.2865555649733913,0.6144830786869999,0.19338113939721194,1,1
-2.163398854107094,-0.8728315586917479,1.4984272450959992,1.5901774543941563,1.770445141935717,-0.16132274308372965,-0.41092247264433823,0,3
0.7937545695411737,-0.046242547066112784,-0.76492564579237,-0.4548053287908352,-1.2385531669045546,2.511169236012916,0.03164925641180038,1,0
1.1511013873695113,0.4831459210536761,-1.0688968144416247,-1.349213934599982,-1.6919638709763765,-1.1092579322504885,2.083572727490261,1,2
0.2801589406785831,-0.566343498201344,-0.10358296805547805,-0.2637665974529592,0.24533641005777113,0.4203276784962178,-0.9291815361025166,1,4
0.0877414233864014,-0.29700550564917066,0.7220684494918219,0.2051466521945546,-0.5790466882546321,-0.44439805344592004,-0.9001016655164699,1,5
-1.8682622110423943,-0.9099816266299787,1.4819963711149584,1.8810773407495585,1.193376973117035,-0.12869158338779976,-0.20258312584293364,0,3
-2.4643224901730627,-1.0121443134601134,1.3628725347524127,1.2992775680387538,1.523130212441996,-0.07688961737051146,-0.3814442476667016,0,3
1.010766807088747,2.1409677027972256,-0.9415575410885585,-1.7095824505327937,-1.073676547242074,-0.886142377829569,2.187144869303579,1,2
0.5955500592477233,1.0496844571116957,-0.1323369975222994,-1.2102766754451633,-0.7027041530014926,1.6301279242228126,0.03443773715292817,1,0
-2.870858748512184,-0.9099816266299787,1.0958708325605,1.872393762052382,0.987281198538934,0.006727729350308661,-0.404947156770493,0,3
-1.0682104286170067,-0.9564192115527672,1.5477198670391217,1.7160893455032105,1.4819110575263759,-0.1237969094334104,-0.1846571782213979,0,3
-0.3752180167150888,-0.5709872566936227,0.5865137391482353,0.5264390639900737,0.20411725514215096,-0.01937719840643515,0.25393100691884385,1,1
0.6432927515081894,0.7617714305904069,-0.5800783135056611,-0.6284769027343589,-0.290512603845291,2.766915950129765,-0.3081470396141998,1,0
-0.2536911636884477,-0.5477684642322286,-0.24324539689432478,0.05318402499397139,-0.12563598418281033,0.2547245430393746,-0.6033276437821554,1,4
-0.2406704294355933,-0.6034935661395747,0.5290056802145925,-0.24205765071001872,0.2865555649733913,-0.23107184693377952,-0.5822148610279022,1,4
1.1163794293618996,3.074363159745274,-0.9251266671075177,-1.5055183511491534,-1.362210631651415,-1.2047040743610828,2.0708253869593913,1,2
-2.412239553161645,-0.9564192115527672,1.178025202465704,1.9462041809783799,1.2758152829482752,-0.14786238970915871,-0.1157418684763826,0,3
-0.17267326167068686,-0.626712358600969,0.8247614118733267,0.38316001548666645,0.7811854239608332,0.5549312122419281,0.21847746606736204,1,1
0.16297233240289347,-0.6127810831241324,0.2127113560795572,-0.16824723178402104,0.03924063547967032,0.07362160672696436,-0.6439597917243033,1,4
0.8357102688003712,1.0914782835422052,-0.12001384203651885,-0.2637665974529592,-1.2797723218201749,2.5666422074959963,-0.5196732215483219,1,0
-0.4244074572258721,-0.5849185321704593,0.6152677686150566,0.773921056859595,0.2865555649733913,0.20129101903728955,0.39176162640887446,1,1
1.167015618123,0.39955826819265694,-1.487884100958165,-1.4577586683146844,-1.6095255611451362,-1.4588192304931356,2.209851069624191,1,2
-0.182800499422907,-0.5988498076472958,0.40577412535678664,0.4656540131098401,0.5750896493827324,0.5630890021659104,-0.020535168886448206,1,1
-2.1807598331109,-0.9517754530604883,1.284825883342469,1.8550266046580295,1.1521578182014147,0.09116085506352686,-0.20935515049995826,0,3
-0.340496058707477,-0.6917249774928728,0.6152677686150566,0.4048689622296069,0.739966269045213,-0.08015273334010437,0.03881963546041467,1,1
-0.17267326167068686,-0.5802747736781804,0.15931101564117467,-0.6675530068716516,0.20411725514215096,0.06383225881818565,-0.9012967286912389,1,4
0.3235613881880979,-0.35737436604879563,0.5084670877382916,0.5568315894301901,0.1628981002265308,-0.8168011634757183,-0.8052933203181251,1,5
-2.5612546229443125,-0.900694109645421,0.9972855886742551,1.7247729242003866,1.770445141935717,-0.14827027920535776,-0.4479694310621788,0,3
1.1279534153644368,2.7307250313166396,-1.668623714749614,-1.2233020434909276,-1.7744021808076167,-1.0325747069650537,2.255661824657005,1,2
0.926855408570352,2.8979003370386778,-1.467345508481864,-1.2146184647937512,-1.362210631651415,-1.5297920028317828,1.3713150753279066,1,2
0.8791127163098857,0.8407153249591474,-1.093543125413186,-1.2319856221881036,-0.5378275333390119,1.673772100316119,-0.15517895324376127,1,0
1.1438676461179256,1.5140603063395806,-0.9497729780790789,-1.062655837593168,-1.4446489414826555,-1.5591600465581197,2.608603815605464,1,2
